
T14E8 000:010 SEGGER J-Link V6.30f Log File (0340ms, 0350ms total)
T14E8 000:010 DLL Compiled: Mar  2 2018 17:29:18 (0340ms, 0350ms total)
T14E8 000:010 Logging started @ 2018-09-04 12:36 (0340ms, 0350ms total)
T14E8 000:350 JLINK_SetWarnOutHandler(...) (0000ms, 0350ms total)
T14E8 000:350 JLINK_OpenEx(...)
Firmware: J-Link ARM V8 compiled Nov 28 2014 13:44:46
Hardware: V8.00
S/N: 16864320
Feature(s): RDI,FlashDL,FlashBP,JFlash,GDB
TELNET listener socket opened on port 19021WEBSRV 
Starting webserver (0034ms, 0384ms total)
T14E8 000:350 WEBSRV Webserver running on local port 19080 (0034ms, 0384ms total)
T14E8 000:350   returns O.K. (0034ms, 0384ms total)
T14E8 000:384 JLINK_GetEmuCaps()  returns 0xB9FF7BBF (0000ms, 0384ms total)
T14E8 000:384 JLINK_TIF_GetAvailable(...) (0001ms, 0385ms total)
T14E8 000:385 JLINK_SetErrorOutHandler(...) (0000ms, 0385ms total)
T14E8 000:385 JLINK_ExecCommand("ProjectFile = "H:\Gits\FixedMCU\Project_Files\JLinkSettings.ini"", ...). C:\Program Files (x86)\SEGGER\JLink_V630f\JLinkDevices.xml evaluated successfully.  returns 0x00 (0220ms, 0605ms total)
T14E8 000:609 JLINK_ExecCommand("Device = LPC1768", ...). Device "LPC1768" selected.  returns 0x00 (0003ms, 0608ms total)
T14E8 000:612 JLINK_ExecCommand("DisableConnectionTimeout", ...).   returns 0x01 (0000ms, 0608ms total)
T14E8 000:612 JLINK_GetHardwareVersion()  returns 0x13880 (0000ms, 0608ms total)
T14E8 000:612 JLINK_GetDLLVersion()  returns 63006 (0001ms, 0609ms total)
T14E8 000:613 JLINK_GetFirmwareString(...) (0000ms, 0609ms total)
T14E8 000:614 JLINK_GetDLLVersion()  returns 63006 (0000ms, 0609ms total)
T14E8 000:614 JLINK_GetCompileDateTime() (0000ms, 0609ms total)
T14E8 000:616 JLINK_GetFirmwareString(...) (0000ms, 0609ms total)
T14E8 000:617 JLINK_GetHardwareVersion()  returns 0x13880 (0000ms, 0609ms total)
T14E8 000:620 JLINK_TIF_Select(JLINKARM_TIF_JTAG)  returns 0x00 (0003ms, 0612ms total)
T14E8 000:623 JLINK_SetSpeed(5000) (0001ms, 0613ms total)
T14E8 000:624 JLINK_GetIdData(...) >0x2F8 JTAG>TotalIRLen = 4, IRPrint = 0x01 >0x30 JTAG> >0x30 JTAG>JTAG chain detection found 1 devices: #0 Id: 0x4BA00477, IRLen: 04, CoreSight JTAG-DPScanning AP map to find all available APs >0x78 JTAG> >0x48 JTAG> >0x40 JTAG> >0x40 JTAG> >0x48 JTAG> >0x40 JTAG>AP[1]: Stopped AP scan as end of AP map has been reachedAP[0]: AHB-AP (IDR: 0x24770011)Iterating through AP map to find AHB-AP to use >0x78 JTAG> >0x48 JTAG> >0x48 JTAG> >0x78 JTAG> >0x40 JTAG> >0x30 JTAG>
 >0x40 JTAG> >0x40 JTAG>AP[0]: Core foundAP[0]: AHB-AP ROM base: 0xE00FF000 >0x40 JTAG> >0x40 JTAG> >0x30 JTAG> >0x40 JTAG> >0x40 JTAG>CPUID register: 0x412FC230. Implementer code: 0x41 (ARM)Found Cortex-M3 r2p0, Little endian. -- CPU_ReadMem(4 bytes @ 0xE000EDF0) -- CPU_WriteMem(4 bytes @ 0xE000EDF0) -- CPU_ReadMem(4 bytes @ 0xE0002000)FPUnit: 6 code (BP) slots and 2 literal slots -- CPU_ReadMem(4 bytes @ 0xE000EDFC) -- CPU_WriteMem(4 bytes @ 0xE000EDFC) -- CPU_ReadMem(4 bytes @ 0xE0001000)
 -- CPU_WriteMem(4 bytes @ 0xE0001000) -- CPU_ReadMem(4 bytes @ 0xE000ED88) -- CPU_WriteMem(4 bytes @ 0xE000ED88) -- CPU_ReadMem(4 bytes @ 0xE000ED88) -- CPU_WriteMem(4 bytes @ 0xE000ED88)CoreSight components:ROMTbl[0] @ E00FF000 -- CPU_ReadMem(16 bytes @ 0xE00FF000) -- CPU_ReadMem(16 bytes @ 0xE000EFF0) -- CPU_ReadMem(16 bytes @ 0xE000EFE0)ROMTbl[0][0]: E000E000, CID: B105E00D, PID: 002BB000 SCS -- CPU_ReadMem(16 bytes @ 0xE0001FF0) -- CPU_ReadMem(16 bytes @ 0xE0001FE0)
ROMTbl[0][1]: E0001000, CID: B105E00D, PID: 002BB002 DWT -- CPU_ReadMem(16 bytes @ 0xE0002FF0) -- CPU_ReadMem(16 bytes @ 0xE0002FE0)ROMTbl[0][2]: E0002000, CID: B105E00D, PID: 002BB003 FPB -- CPU_ReadMem(16 bytes @ 0xE0000FF0) -- CPU_ReadMem(16 bytes @ 0xE0000FE0)ROMTbl[0][3]: E0000000, CID: B105E00D, PID: 002BB001 ITM -- CPU_ReadMem(16 bytes @ 0xE00FF010) -- CPU_ReadMem(16 bytes @ 0xE0040FF0) -- CPU_ReadMem(16 bytes @ 0xE0040FE0)ROMTbl[0][4]: E0040000, CID: B105900D, PID: 002BB923 TPIU-Lite
 -- CPU_ReadMem(16 bytes @ 0xE0041FF0) -- CPU_ReadMem(16 bytes @ 0xE0041FE0)ROMTbl[0][5]: E0041000, CID: B105900D, PID: 002BB924 ETM-M3 ScanLen=4 NumDevices=1 aId[0]=0x4BA00477 aIrRead[0]=0 aScanLen[0]=0 aScanRead[0]=0 (0052ms, 0665ms total)
T14E8 000:676 JLINK_JTAG_GetDeviceID(DeviceIndex = 0)  returns 0x4BA00477 (0000ms, 0665ms total)
T14E8 000:676 JLINK_JTAG_GetDeviceInfo(DeviceIndex = 0)  returns 0x00 (0000ms, 0665ms total)
T14E8 000:676 JLINK_GetDLLVersion()  returns 63006 (0000ms, 0665ms total)
T14E8 000:676 JLINK_CORE_GetFound()  returns 0x30000FF (0000ms, 0665ms total)
T14E8 000:676 JLINK_GetDebugInfo(0x100 = JLINKARM_ROM_TABLE_ADDR_INDEX) -- Value=0xE00FF000  returns 0x00 (0000ms, 0665ms total)
T14E8 000:677 JLINK_GetDebugInfo(0x100 = JLINKARM_ROM_TABLE_ADDR_INDEX) -- Value=0xE00FF000  returns 0x00 (0000ms, 0665ms total)
T14E8 000:677 JLINK_GetDebugInfo(0x101 = JLINKARM_DEBUG_INFO_ETM_ADDR_INDEX) -- Value=0xE0041000  returns 0x00 (0000ms, 0665ms total)
T14E8 000:677 JLINK_ReadMemEx(0xE0041FD0, 0x0020 Bytes, ..., Flags = 0x02000004) -- CPU_ReadMem(32 bytes @ 0xE0041FD0) - Data: 04 00 00 00 00 00 00 00 00 00 00 00 00 00 00 00 ...  returns 0x20 (0001ms, 0666ms total)
T14E8 000:678 JLINK_GetDebugInfo(0x102 = JLINKARM_DEBUG_INFO_MTB_ADDR_INDEX) -- Value=0x00000000  returns 0x00 (0000ms, 0666ms total)
T14E8 000:678 JLINK_GetDebugInfo(0x103 = JLINKARM_DEBUG_INFO_TPIU_ADDR_INDEX) -- Value=0xE0040000  returns 0x00 (0000ms, 0666ms total)
T14E8 000:678 JLINK_GetDebugInfo(0x104 = JLINKARM_DEBUG_INFO_ITM_ADDR_INDEX) -- Value=0xE0000000  returns 0x00 (0000ms, 0666ms total)
T14E8 000:678 JLINK_GetDebugInfo(0x105 = JLINKARM_DEBUG_INFO_DWT_ADDR_INDEX) -- Value=0xE0001000  returns 0x00 (0000ms, 0666ms total)
T14E8 000:678 JLINK_GetDebugInfo(0x106 = JLINKARM_DEBUG_INFO_FPB_ADDR_INDEX) -- Value=0xE0002000  returns 0x00 (0000ms, 0666ms total)
T14E8 000:678 JLINK_GetDebugInfo(0x107 = JLINKARM_DEBUG_INFO_NVIC_ADDR_INDEX) -- Value=0xE000E000  returns 0x00 (0000ms, 0666ms total)
T14E8 000:678 JLINK_GetDebugInfo(0x10C = JLINKARM_DEBUG_INFO_DBG_ADDR_INDEX) -- Value=0xE000EDF0  returns 0x00 (0000ms, 0666ms total)
T14E8 000:678 JLINK_ReadMemU32(0xE000ED00, 0x0001 Items, ...) -- CPU_ReadMem(4 bytes @ 0xE000ED00) - Data: 30 C2 2F 41  returns 0x01 (0000ms, 0666ms total)
T14E8 000:678 JLINK_GetDebugInfo(0x10F = JLINKARM_DEBUG_INFO_HAS_CORTEX_M_SECURITY_EXT_INDEX) -- Value=0x00000000  returns 0x00 (0000ms, 0666ms total)
T14E8 000:678 JLINK_SetResetType(JLINKARM_CM3_RESET_TYPE_NORMAL)  returns ??? (0000ms, 0666ms total)
T14E8 000:678 JLINK_Reset() -- CPU is running -- CPU_WriteMem(4 bytes @ 0xE000EDF0) -- CPU is running -- CPU_WriteMem(4 bytes @ 0xE000EDFC)Reset: Halt core after reset via DEMCR.VC_CORERESET.Reset: Reset device via AIRCR.SYSRESETREQ. -- CPU is running -- CPU_WriteMem(4 bytes @ 0xE000ED0C) -- CPU_ReadMem(4 bytes @ 0xE000EDF0) -- CPU_ReadMem(4 bytes @ 0xE000EDF0) -- CPU is running -- CPU_WriteMem(4 bytes @ 0xE000EDF0) -- CPU is running -- CPU_WriteMem(4 bytes @ 0xE000EDFC)
 -- CPU_ReadMem(4 bytes @ 0xE000EDF0) -- CPU_WriteMem(4 bytes @ 0xE000EDFC) -- CPU_WriteMem(4 bytes @ 0xE0001028) -- CPU_WriteMem(4 bytes @ 0xE0001038) -- CPU_WriteMem(4 bytes @ 0xE0001048) -- CPU_WriteMem(4 bytes @ 0xE0001058) -- CPU_WriteMem(4 bytes @ 0xE000EDFC) -- CPU_WriteMem(4 bytes @ 0xE0001028) -- CPU_WriteMem(4 bytes @ 0xE0001028) -- CPU_WriteMem(4 bytes @ 0xE000EDFC) -- CPU_WriteMem(4 bytes @ 0xE0001028) -- CPU_WriteMem(4 bytes @ 0xE0001028) -- CPU_WriteMem(4 bytes @ 0xE000EDFC)
 -- CPU_WriteMem(4 bytes @ 0xE0001028) -- CPU_WriteMem(4 bytes @ 0xE0001028) -- CPU_WriteMem(4 bytes @ 0xE000EDFC) -- CPU_WriteMem(4 bytes @ 0xE0001028) -- CPU_WriteMem(4 bytes @ 0xE0001028) -- CPU_WriteMem(4 bytes @ 0xE000EDFC) -- CPU_WriteMem(4 bytes @ 0xE0001050) -- CPU_WriteMem(4 bytes @ 0xE0001054) -- CPU_WriteMem(4 bytes @ 0xE0001058) -- CPU_ReadMem(4 bytes @ 0xE0001000) -- CPU_WriteMem(4 bytes @ 0xE000EDFC) -- CPU_WriteMem(4 bytes @ 0xE0001058) -- CPU_ReadMem(4 bytes @ 0x00000004)
 -- CPU_ReadMem(4 bytes @ 0xE0002000) -- CPU_ReadMem(4 bytes @ 0xE0002008) -- CPU_ReadMem(4 bytes @ 0xE000200C) -- CPU_ReadMem(4 bytes @ 0xE0002010) -- CPU_ReadMem(4 bytes @ 0xE0002014) -- CPU_ReadMem(4 bytes @ 0xE0002018) -- CPU_ReadMem(4 bytes @ 0xE000201C) -- CPU_WriteMem(4 bytes @ 0xE0002000) -- CPU_WriteMem(4 bytes @ 0xE0002008) -- CPU_WriteMem(4 bytes @ 0xE000200C) -- CPU_WriteMem(4 bytes @ 0xE0002010) -- CPU_WriteMem(4 bytes @ 0xE0002014) -- CPU_WriteMem(4 bytes @ 0xE0002018)
 -- CPU_WriteMem(4 bytes @ 0xE000201C) -- CPU_ReadMem(4 bytes @ 0xE0001000) -- CPU_WriteMem(4 bytes @ 0xE0002000) -- CPU_WriteMem(4 bytes @ 0xE0002008) -- CPU_WriteMem(4 bytes @ 0xE000200C) -- CPU_WriteMem(4 bytes @ 0xE0002010) -- CPU_WriteMem(4 bytes @ 0xE0002014) -- CPU_WriteMem(4 bytes @ 0xE0002018) -- CPU_WriteMem(4 bytes @ 0xE000201C) -- CPU_WriteMem(4 bytes @ 0xE0002000) -- CPU_ReadMem(4 bytes @ 0xE000EDFC) -- CPU_ReadMem(4 bytes @ 0xE0001000) >0x40 JTAG> (0314ms, 0980ms total)
T14E8 000:992 JLINK_Halt()  returns 0x00 (0000ms, 0980ms total)
T14E8 000:992 JLINK_ReadMemU32(0xE000EDF0, 0x0001 Items, ...) -- CPU_ReadMem(4 bytes @ 0xE000EDF0) - Data: 03 00 03 00  returns 0x01 (0001ms, 0981ms total)
T14E8 000:993 JLINK_WriteU32(0xE000EDF0, 0xA05F0003) -- CPU_WriteMem(4 bytes @ 0xE000EDF0)  returns 0x00 (0000ms, 0981ms total)
T14E8 000:993 JLINK_WriteU32(0xE000EDFC, 0x01000000) -- CPU_WriteMem(4 bytes @ 0xE000EDFC)  returns 0x00 (0001ms, 0982ms total)
T14E8 001:000 JLINK_GetHWStatus(...)  returns 0x00 (0001ms, 0983ms total)
T14E8 001:003 JLINK_GetNumBPUnits(Type = 0xFFFFFF00)  returns 0x06 (0000ms, 0983ms total)
T14E8 001:003 JLINK_GetNumBPUnits(Type = 0xF0)  returns 0x2000 (0000ms, 0983ms total)
T14E8 001:003 JLINK_GetNumWPUnits()  returns 0x04 (0000ms, 0983ms total)
T14E8 001:005 JLINK_GetSpeed()  returns 0x12C0 (0000ms, 0983ms total)
T14E8 001:006 JLINK_ReadMemU32(0xE000E004, 0x0001 Items, ...) -- CPU_ReadMem(4 bytes @ 0xE000E004) - Data: 01 00 00 00  returns 0x01 (0001ms, 0984ms total)
T14E8 001:007 JLINK_ReadMemU32(0xE000E004, 0x0001 Items, ...) -- CPU_ReadMem(4 bytes @ 0xE000E004) - Data: 01 00 00 00  returns 0x01 (0001ms, 0985ms total)
T14E8 001:008 JLINK_WriteMemEx(0xE0001000, 0x001C Bytes, ..., Flags = 0x02000004) - Data: 01 00 00 00 00 00 00 00 00 00 00 00 00 00 00 00 ... -- CPU_WriteMem(28 bytes @ 0xE0001000)  returns 0x1C (0001ms, 0986ms total)
T14E8 001:009 JLINK_Halt()  returns 0x00 (0000ms, 0986ms total)
T14E8 001:009 JLINK_IsHalted()  returns TRUE (0000ms, 0986ms total)
T14E8 001:016 JLINK_WriteMem(0x10000000, 0x01E4 Bytes, ...) - Data: 00 BE 0A E0 0D 78 2D 06 68 40 08 24 40 00 00 D3 ... -- CPU_WriteMem(484 bytes @ 0x10000000)  returns 0x1E4 (0005ms, 0991ms total)
T14E8 001:021 JLINK_WriteReg(R0, 0x00000000)  returns 0x00 (0000ms, 0991ms total)
T14E8 001:021 JLINK_WriteReg(R1, 0x00B71B00)  returns 0x00 (0000ms, 0991ms total)
T14E8 001:021 JLINK_WriteReg(R2, 0x00000001)  returns 0x00 (0000ms, 0991ms total)
T14E8 001:021 JLINK_WriteReg(R3, 0x00000000)  returns 0x00 (0000ms, 0991ms total)
T14E8 001:021 JLINK_WriteReg(R4, 0x00000000)  returns 0x00 (0000ms, 0991ms total)
T14E8 001:021 JLINK_WriteReg(R5, 0x00000000)  returns 0x00 (0000ms, 0991ms total)
T14E8 001:021 JLINK_WriteReg(R6, 0x00000000)  returns 0x00 (0000ms, 0991ms total)
T14E8 001:021 JLINK_WriteReg(R7, 0x00000000)  returns 0x00 (0000ms, 0991ms total)
T14E8 001:021 JLINK_WriteReg(R8, 0x00000000)  returns 0x00 (0000ms, 0991ms total)
T14E8 001:021 JLINK_WriteReg(R9, 0x100001DC)  returns 0x00 (0000ms, 0991ms total)
T14E8 001:021 JLINK_WriteReg(R10, 0x00000000)  returns 0x00 (0000ms, 0991ms total)
T14E8 001:021 JLINK_WriteReg(R11, 0x00000000)  returns 0x00 (0000ms, 0991ms total)
T14E8 001:021 JLINK_WriteReg(R12, 0x00000000)  returns 0x00 (0000ms, 0991ms total)
T14E8 001:021 JLINK_WriteReg(R13 (SP), 0x10000FE0)  returns 0x00 (0001ms, 0992ms total)
T14E8 001:022 JLINK_WriteReg(R14, 0x10000001)  returns 0x00 (0000ms, 0992ms total)
T14E8 001:022 JLINK_WriteReg(R15 (PC), 0x10000044)  returns 0x00 (0000ms, 0992ms total)
T14E8 001:022 JLINK_WriteReg(XPSR, 0x01000000)  returns 0x00 (0000ms, 0992ms total)
T14E8 001:022 JLINK_WriteReg(MSP, 0x10000FE0)  returns 0x00 (0000ms, 0992ms total)
T14E8 001:022 JLINK_WriteReg(PSP, 0x10000FE0)  returns 0x00 (0000ms, 0992ms total)
T14E8 001:022 JLINK_WriteReg(CFBP, 0x00000000)  returns 0x00 (0000ms, 0992ms total)
T14E8 001:022 JLINK_SetBPEx(Addr = 0x10000000, Type = 0xFFFFFFF2)  returns 0x00000001 (0000ms, 0992ms total)
T14E8 001:022 JLINK_Go() -- CPU_ReadMem(4 bytes @ 0xE0001000) -- CPU_WriteMem(4 bytes @ 0xE0002008) -- CPU_WriteMem(4 bytes @ 0xE000200C) -- CPU_WriteMem(4 bytes @ 0xE0002010) -- CPU_WriteMem(4 bytes @ 0xE0002014) -- CPU_WriteMem(4 bytes @ 0xE0002018) -- CPU_WriteMem(4 bytes @ 0xE000201C) -- CPU_WriteMem(4 bytes @ 0xE0001004) (0006ms, 0998ms total)
T14E8 001:028 JLINK_IsHalted()  returns TRUE (0003ms, 1001ms total)
T14E8 001:031 JLINK_ReadReg(R15 (PC))  returns 0x10000000 (0000ms, 0998ms total)
T14E8 001:031 JLINK_ClrBPEx(BPHandle = 0x00000001)  returns 0x00 (0000ms, 0998ms total)
T14E8 001:031 JLINK_ReadReg(R0)  returns 0x00000000 (0000ms, 0998ms total)
T14E8 001:032 JLINK_WriteReg(R0, 0x00000000)  returns 0x00 (0000ms, 0998ms total)
T14E8 001:032 JLINK_WriteReg(R1, 0x00001000)  returns 0x00 (0000ms, 0998ms total)
T14E8 001:032 JLINK_WriteReg(R2, 0x000000FF)  returns 0x00 (0000ms, 0998ms total)
T14E8 001:032 JLINK_WriteReg(R3, 0x00000000)  returns 0x00 (0000ms, 0998ms total)
T14E8 001:032 JLINK_WriteReg(R4, 0x00000000)  returns 0x00 (0000ms, 0998ms total)
T14E8 001:032 JLINK_WriteReg(R5, 0x00000000)  returns 0x00 (0000ms, 0998ms total)
T14E8 001:032 JLINK_WriteReg(R6, 0x00000000)  returns 0x00 (0000ms, 0998ms total)
T14E8 001:032 JLINK_WriteReg(R7, 0x00000000)  returns 0x00 (0000ms, 0998ms total)
T14E8 001:032 JLINK_WriteReg(R8, 0x00000000)  returns 0x00 (0000ms, 0998ms total)
T14E8 001:032 JLINK_WriteReg(R9, 0x100001DC)  returns 0x00 (0000ms, 0998ms total)
T14E8 001:032 JLINK_WriteReg(R10, 0x00000000)  returns 0x00 (0000ms, 0998ms total)
T14E8 001:032 JLINK_WriteReg(R11, 0x00000000)  returns 0x00 (0000ms, 0998ms total)
T14E8 001:032 JLINK_WriteReg(R12, 0x00000000)  returns 0x00 (0000ms, 0998ms total)
T14E8 001:032 JLINK_WriteReg(R13 (SP), 0x10000FE0)  returns 0x00 (0000ms, 0998ms total)
T14E8 001:032 JLINK_WriteReg(R14, 0x10000001)  returns 0x00 (0000ms, 0998ms total)
T14E8 001:032 JLINK_WriteReg(R15 (PC), 0x10000020)  returns 0x00 (0000ms, 0998ms total)
T14E8 001:032 JLINK_WriteReg(XPSR, 0x01000000)  returns 0x00 (0000ms, 0998ms total)
T14E8 001:032 JLINK_WriteReg(MSP, 0x10000FE0)  returns 0x00 (0000ms, 0998ms total)
T14E8 001:032 JLINK_WriteReg(PSP, 0x10000FE0)  returns 0x00 (0000ms, 0998ms total)
T14E8 001:032 JLINK_WriteReg(CFBP, 0x00000000)  returns 0x00 (0000ms, 0998ms total)
T14E8 001:032 JLINK_SetBPEx(Addr = 0x10000000, Type = 0xFFFFFFF2)  returns 0x00000002 (0000ms, 0998ms total)
T14E8 001:032 JLINK_Go() -- CPU_ReadMem(4 bytes @ 0xE0001000) (0003ms, 1001ms total)
T14E8 001:035 JLINK_IsHalted()  returns TRUE (0003ms, 1004ms total)
T14E8 001:038 JLINK_ReadReg(R15 (PC))  returns 0x10000000 (0000ms, 1001ms total)
T14E8 001:038 JLINK_ClrBPEx(BPHandle = 0x00000002)  returns 0x00 (0000ms, 1001ms total)
T14E8 001:038 JLINK_ReadReg(R0)  returns 0x00000001 (0000ms, 1001ms total)
T14E8 001:038 JLINK_WriteReg(R0, 0x00000000)  returns 0x00 (0000ms, 1001ms total)
T14E8 001:038 JLINK_WriteReg(R1, 0x00001000)  returns 0x00 (0000ms, 1001ms total)
T14E8 001:038 JLINK_WriteReg(R2, 0x000000FF)  returns 0x00 (0000ms, 1001ms total)
T14E8 001:038 JLINK_WriteReg(R3, 0x00000000)  returns 0x00 (0000ms, 1001ms total)
T14E8 001:038 JLINK_WriteReg(R4, 0x00000000)  returns 0x00 (0000ms, 1001ms total)
T14E8 001:038 JLINK_WriteReg(R5, 0x00000000)  returns 0x00 (0000ms, 1001ms total)
T14E8 001:038 JLINK_WriteReg(R6, 0x00000000)  returns 0x00 (0000ms, 1001ms total)
T14E8 001:038 JLINK_WriteReg(R7, 0x00000000)  returns 0x00 (0000ms, 1001ms total)
T14E8 001:038 JLINK_WriteReg(R8, 0x00000000)  returns 0x00 (0000ms, 1001ms total)
T14E8 001:038 JLINK_WriteReg(R9, 0x100001DC)  returns 0x00 (0000ms, 1001ms total)
T14E8 001:038 JLINK_WriteReg(R10, 0x00000000)  returns 0x00 (0000ms, 1001ms total)
T14E8 001:038 JLINK_WriteReg(R11, 0x00000000)  returns 0x00 (0000ms, 1001ms total)
T14E8 001:038 JLINK_WriteReg(R12, 0x00000000)  returns 0x00 (0000ms, 1001ms total)
T14E8 001:038 JLINK_WriteReg(R13 (SP), 0x10000FE0)  returns 0x00 (0000ms, 1001ms total)
T14E8 001:038 JLINK_WriteReg(R14, 0x10000001)  returns 0x00 (0000ms, 1001ms total)
T14E8 001:038 JLINK_WriteReg(R15 (PC), 0x10000110)  returns 0x00 (0000ms, 1001ms total)
T14E8 001:038 JLINK_WriteReg(XPSR, 0x01000000)  returns 0x00 (0000ms, 1001ms total)
T14E8 001:038 JLINK_WriteReg(MSP, 0x10000FE0)  returns 0x00 (0000ms, 1001ms total)
T14E8 001:038 JLINK_WriteReg(PSP, 0x10000FE0)  returns 0x00 (0000ms, 1001ms total)
T14E8 001:038 JLINK_WriteReg(CFBP, 0x00000000)  returns 0x00 (0000ms, 1001ms total)
T14E8 001:038 JLINK_SetBPEx(Addr = 0x10000000, Type = 0xFFFFFFF2)  returns 0x00000003 (0000ms, 1001ms total)
T14E8 001:038 JLINK_Go() -- CPU_ReadMem(4 bytes @ 0xE0001000) (0003ms, 1004ms total)
T14E8 001:041 JLINK_IsHalted()  returns FALSE (0001ms, 1005ms total)
T14E8 001:135 JLINK_IsHalted()  returns FALSE (0000ms, 1004ms total)
T14E8 001:266 JLINK_IsHalted()  returns TRUE (0003ms, 1007ms total)
T14E8 001:269 JLINK_ReadReg(R15 (PC))  returns 0x10000000 (0000ms, 1004ms total)
T14E8 001:269 JLINK_ClrBPEx(BPHandle = 0x00000003)  returns 0x00 (0000ms, 1004ms total)
T14E8 001:269 JLINK_ReadReg(R0)  returns 0x00000000 (0000ms, 1004ms total)
T14E8 001:270 JLINK_WriteReg(R0, 0x00001000)  returns 0x00 (0000ms, 1004ms total)
T14E8 001:270 JLINK_WriteReg(R1, 0x00001000)  returns 0x00 (0000ms, 1004ms total)
T14E8 001:270 JLINK_WriteReg(R2, 0x000000FF)  returns 0x00 (0000ms, 1004ms total)
T14E8 001:270 JLINK_WriteReg(R3, 0x00000000)  returns 0x00 (0000ms, 1004ms total)
T14E8 001:270 JLINK_WriteReg(R4, 0x00000000)  returns 0x00 (0000ms, 1004ms total)
T14E8 001:270 JLINK_WriteReg(R5, 0x00000000)  returns 0x00 (0000ms, 1004ms total)
T14E8 001:270 JLINK_WriteReg(R6, 0x00000000)  returns 0x00 (0000ms, 1004ms total)
T14E8 001:270 JLINK_WriteReg(R7, 0x00000000)  returns 0x00 (0000ms, 1004ms total)
T14E8 001:270 JLINK_WriteReg(R8, 0x00000000)  returns 0x00 (0000ms, 1004ms total)
T14E8 001:270 JLINK_WriteReg(R9, 0x100001DC)  returns 0x00 (0000ms, 1004ms total)
T14E8 001:270 JLINK_WriteReg(R10, 0x00000000)  returns 0x00 (0000ms, 1004ms total)
T14E8 001:270 JLINK_WriteReg(R11, 0x00000000)  returns 0x00 (0000ms, 1004ms total)
T14E8 001:270 JLINK_WriteReg(R12, 0x00000000)  returns 0x00 (0000ms, 1004ms total)
T14E8 001:270 JLINK_WriteReg(R13 (SP), 0x10000FE0)  returns 0x00 (0000ms, 1004ms total)
T14E8 001:270 JLINK_WriteReg(R14, 0x10000001)  returns 0x00 (0000ms, 1004ms total)
T14E8 001:270 JLINK_WriteReg(R15 (PC), 0x10000020)  returns 0x00 (0000ms, 1004ms total)
T14E8 001:270 JLINK_WriteReg(XPSR, 0x01000000)  returns 0x00 (0000ms, 1004ms total)
T14E8 001:270 JLINK_WriteReg(MSP, 0x10000FE0)  returns 0x00 (0000ms, 1004ms total)
T14E8 001:270 JLINK_WriteReg(PSP, 0x10000FE0)  returns 0x00 (0000ms, 1004ms total)
T14E8 001:270 JLINK_WriteReg(CFBP, 0x00000000)  returns 0x00 (0000ms, 1004ms total)
T14E8 001:270 JLINK_SetBPEx(Addr = 0x10000000, Type = 0xFFFFFFF2)  returns 0x00000004 (0000ms, 1004ms total)
T14E8 001:270 JLINK_Go() -- CPU_ReadMem(4 bytes @ 0xE0001000) (0003ms, 1007ms total)
T14E8 001:273 JLINK_IsHalted()  returns TRUE (0003ms, 1010ms total)
T14E8 001:276 JLINK_ReadReg(R15 (PC))  returns 0x10000000 (0000ms, 1007ms total)
T14E8 001:276 JLINK_ClrBPEx(BPHandle = 0x00000004)  returns 0x00 (0000ms, 1007ms total)
T14E8 001:276 JLINK_ReadReg(R0)  returns 0x00000001 (0001ms, 1008ms total)
T14E8 001:277 JLINK_WriteReg(R0, 0x00001000)  returns 0x00 (0000ms, 1008ms total)
T14E8 001:277 JLINK_WriteReg(R1, 0x00001000)  returns 0x00 (0000ms, 1008ms total)
T14E8 001:277 JLINK_WriteReg(R2, 0x000000FF)  returns 0x00 (0000ms, 1008ms total)
T14E8 001:277 JLINK_WriteReg(R3, 0x00000000)  returns 0x00 (0000ms, 1008ms total)
T14E8 001:277 JLINK_WriteReg(R4, 0x00000000)  returns 0x00 (0000ms, 1008ms total)
T14E8 001:277 JLINK_WriteReg(R5, 0x00000000)  returns 0x00 (0000ms, 1008ms total)
T14E8 001:277 JLINK_WriteReg(R6, 0x00000000)  returns 0x00 (0000ms, 1008ms total)
T14E8 001:277 JLINK_WriteReg(R7, 0x00000000)  returns 0x00 (0000ms, 1008ms total)
T14E8 001:277 JLINK_WriteReg(R8, 0x00000000)  returns 0x00 (0000ms, 1008ms total)
T14E8 001:277 JLINK_WriteReg(R9, 0x100001DC)  returns 0x00 (0000ms, 1008ms total)
T14E8 001:277 JLINK_WriteReg(R10, 0x00000000)  returns 0x00 (0000ms, 1008ms total)
T14E8 001:277 JLINK_WriteReg(R11, 0x00000000)  returns 0x00 (0000ms, 1008ms total)
T14E8 001:277 JLINK_WriteReg(R12, 0x00000000)  returns 0x00 (0000ms, 1008ms total)
T14E8 001:277 JLINK_WriteReg(R13 (SP), 0x10000FE0)  returns 0x00 (0000ms, 1008ms total)
T14E8 001:277 JLINK_WriteReg(R14, 0x10000001)  returns 0x00 (0000ms, 1008ms total)
T14E8 001:277 JLINK_WriteReg(R15 (PC), 0x10000110)  returns 0x00 (0000ms, 1008ms total)
T14E8 001:277 JLINK_WriteReg(XPSR, 0x01000000)  returns 0x00 (0000ms, 1008ms total)
T14E8 001:277 JLINK_WriteReg(MSP, 0x10000FE0)  returns 0x00 (0000ms, 1008ms total)
T14E8 001:277 JLINK_WriteReg(PSP, 0x10000FE0)  returns 0x00 (0000ms, 1008ms total)
T14E8 001:277 JLINK_WriteReg(CFBP, 0x00000000)  returns 0x00 (0000ms, 1008ms total)
T14E8 001:277 JLINK_SetBPEx(Addr = 0x10000000, Type = 0xFFFFFFF2)  returns 0x00000005 (0000ms, 1008ms total)
T14E8 001:277 JLINK_Go() -- CPU_ReadMem(4 bytes @ 0xE0001000) (0002ms, 1010ms total)
T14E8 001:279 JLINK_IsHalted()  returns FALSE (0001ms, 1011ms total)
T14E8 001:420 JLINK_IsHalted()  returns TRUE (0003ms, 1013ms total)
T14E8 001:423 JLINK_ReadReg(R15 (PC))  returns 0x10000000 (0000ms, 1010ms total)
T14E8 001:423 JLINK_ClrBPEx(BPHandle = 0x00000005)  returns 0x00 (0000ms, 1010ms total)
T14E8 001:423 JLINK_ReadReg(R0)  returns 0x00000000 (0000ms, 1010ms total)
T14E8 001:424 JLINK_WriteReg(R0, 0x00002000)  returns 0x00 (0000ms, 1010ms total)
T14E8 001:424 JLINK_WriteReg(R1, 0x00001000)  returns 0x00 (0000ms, 1010ms total)
T14E8 001:424 JLINK_WriteReg(R2, 0x000000FF)  returns 0x00 (0000ms, 1010ms total)
T14E8 001:424 JLINK_WriteReg(R3, 0x00000000)  returns 0x00 (0000ms, 1010ms total)
T14E8 001:424 JLINK_WriteReg(R4, 0x00000000)  returns 0x00 (0000ms, 1010ms total)
T14E8 001:424 JLINK_WriteReg(R5, 0x00000000)  returns 0x00 (0000ms, 1010ms total)
T14E8 001:424 JLINK_WriteReg(R6, 0x00000000)  returns 0x00 (0000ms, 1010ms total)
T14E8 001:424 JLINK_WriteReg(R7, 0x00000000)  returns 0x00 (0000ms, 1010ms total)
T14E8 001:424 JLINK_WriteReg(R8, 0x00000000)  returns 0x00 (0000ms, 1010ms total)
T14E8 001:424 JLINK_WriteReg(R9, 0x100001DC)  returns 0x00 (0000ms, 1010ms total)
T14E8 001:424 JLINK_WriteReg(R10, 0x00000000)  returns 0x00 (0000ms, 1010ms total)
T14E8 001:424 JLINK_WriteReg(R11, 0x00000000)  returns 0x00 (0000ms, 1010ms total)
T14E8 001:424 JLINK_WriteReg(R12, 0x00000000)  returns 0x00 (0000ms, 1010ms total)
T14E8 001:424 JLINK_WriteReg(R13 (SP), 0x10000FE0)  returns 0x00 (0000ms, 1010ms total)
T14E8 001:424 JLINK_WriteReg(R14, 0x10000001)  returns 0x00 (0000ms, 1010ms total)
T14E8 001:424 JLINK_WriteReg(R15 (PC), 0x10000020)  returns 0x00 (0000ms, 1010ms total)
T14E8 001:424 JLINK_WriteReg(XPSR, 0x01000000)  returns 0x00 (0000ms, 1010ms total)
T14E8 001:424 JLINK_WriteReg(MSP, 0x10000FE0)  returns 0x00 (0000ms, 1010ms total)
T14E8 001:424 JLINK_WriteReg(PSP, 0x10000FE0)  returns 0x00 (0000ms, 1010ms total)
T14E8 001:424 JLINK_WriteReg(CFBP, 0x00000000)  returns 0x00 (0000ms, 1010ms total)
T14E8 001:424 JLINK_SetBPEx(Addr = 0x10000000, Type = 0xFFFFFFF2)  returns 0x00000006 (0000ms, 1010ms total)
T14E8 001:424 JLINK_Go() -- CPU_ReadMem(4 bytes @ 0xE0001000) (0002ms, 1012ms total)
T14E8 001:426 JLINK_IsHalted()  returns TRUE (0004ms, 1016ms total)
T14E8 001:430 JLINK_ReadReg(R15 (PC))  returns 0x10000000 (0000ms, 1012ms total)
T14E8 001:430 JLINK_ClrBPEx(BPHandle = 0x00000006)  returns 0x00 (0000ms, 1012ms total)
T14E8 001:430 JLINK_ReadReg(R0)  returns 0x00000001 (0000ms, 1012ms total)
T14E8 001:430 JLINK_WriteReg(R0, 0x00002000)  returns 0x00 (0000ms, 1012ms total)
T14E8 001:430 JLINK_WriteReg(R1, 0x00001000)  returns 0x00 (0000ms, 1012ms total)
T14E8 001:430 JLINK_WriteReg(R2, 0x000000FF)  returns 0x00 (0000ms, 1012ms total)
T14E8 001:430 JLINK_WriteReg(R3, 0x00000000)  returns 0x00 (0000ms, 1012ms total)
T14E8 001:430 JLINK_WriteReg(R4, 0x00000000)  returns 0x00 (0000ms, 1012ms total)
T14E8 001:430 JLINK_WriteReg(R5, 0x00000000)  returns 0x00 (0000ms, 1012ms total)
T14E8 001:430 JLINK_WriteReg(R6, 0x00000000)  returns 0x00 (0000ms, 1012ms total)
T14E8 001:430 JLINK_WriteReg(R7, 0x00000000)  returns 0x00 (0000ms, 1012ms total)
T14E8 001:430 JLINK_WriteReg(R8, 0x00000000)  returns 0x00 (0000ms, 1012ms total)
T14E8 001:430 JLINK_WriteReg(R9, 0x100001DC)  returns 0x00 (0000ms, 1012ms total)
T14E8 001:430 JLINK_WriteReg(R10, 0x00000000)  returns 0x00 (0000ms, 1012ms total)
T14E8 001:430 JLINK_WriteReg(R11, 0x00000000)  returns 0x00 (0000ms, 1012ms total)
T14E8 001:430 JLINK_WriteReg(R12, 0x00000000)  returns 0x00 (0000ms, 1012ms total)
T14E8 001:430 JLINK_WriteReg(R13 (SP), 0x10000FE0)  returns 0x00 (0000ms, 1012ms total)
T14E8 001:430 JLINK_WriteReg(R14, 0x10000001)  returns 0x00 (0000ms, 1012ms total)
T14E8 001:430 JLINK_WriteReg(R15 (PC), 0x10000110)  returns 0x00 (0000ms, 1012ms total)
T14E8 001:430 JLINK_WriteReg(XPSR, 0x01000000)  returns 0x00 (0000ms, 1012ms total)
T14E8 001:430 JLINK_WriteReg(MSP, 0x10000FE0)  returns 0x00 (0000ms, 1012ms total)
T14E8 001:430 JLINK_WriteReg(PSP, 0x10000FE0)  returns 0x00 (0000ms, 1012ms total)
T14E8 001:430 JLINK_WriteReg(CFBP, 0x00000000)  returns 0x00 (0000ms, 1012ms total)
T14E8 001:430 JLINK_SetBPEx(Addr = 0x10000000, Type = 0xFFFFFFF2)  returns 0x00000007 (0000ms, 1012ms total)
T14E8 001:430 JLINK_Go() -- CPU_ReadMem(4 bytes @ 0xE0001000) (0002ms, 1014ms total)
T14E8 001:432 JLINK_IsHalted()  returns FALSE (0001ms, 1015ms total)
T14E8 001:589 JLINK_IsHalted()  returns TRUE (0003ms, 1017ms total)
T14E8 001:592 JLINK_ReadReg(R15 (PC))  returns 0x10000000 (0000ms, 1014ms total)
T14E8 001:592 JLINK_ClrBPEx(BPHandle = 0x00000007)  returns 0x00 (0000ms, 1014ms total)
T14E8 001:592 JLINK_ReadReg(R0)  returns 0x00000000 (0000ms, 1014ms total)
T14E8 001:593 JLINK_WriteReg(R0, 0x00003000)  returns 0x00 (0000ms, 1014ms total)
T14E8 001:593 JLINK_WriteReg(R1, 0x00001000)  returns 0x00 (0000ms, 1014ms total)
T14E8 001:593 JLINK_WriteReg(R2, 0x000000FF)  returns 0x00 (0000ms, 1014ms total)
T14E8 001:593 JLINK_WriteReg(R3, 0x00000000)  returns 0x00 (0000ms, 1014ms total)
T14E8 001:593 JLINK_WriteReg(R4, 0x00000000)  returns 0x00 (0000ms, 1014ms total)
T14E8 001:593 JLINK_WriteReg(R5, 0x00000000)  returns 0x00 (0000ms, 1014ms total)
T14E8 001:593 JLINK_WriteReg(R6, 0x00000000)  returns 0x00 (0000ms, 1014ms total)
T14E8 001:593 JLINK_WriteReg(R7, 0x00000000)  returns 0x00 (0000ms, 1014ms total)
T14E8 001:593 JLINK_WriteReg(R8, 0x00000000)  returns 0x00 (0000ms, 1014ms total)
T14E8 001:593 JLINK_WriteReg(R9, 0x100001DC)  returns 0x00 (0000ms, 1014ms total)
T14E8 001:593 JLINK_WriteReg(R10, 0x00000000)  returns 0x00 (0000ms, 1014ms total)
T14E8 001:593 JLINK_WriteReg(R11, 0x00000000)  returns 0x00 (0000ms, 1014ms total)
T14E8 001:593 JLINK_WriteReg(R12, 0x00000000)  returns 0x00 (0000ms, 1014ms total)
T14E8 001:593 JLINK_WriteReg(R13 (SP), 0x10000FE0)  returns 0x00 (0000ms, 1014ms total)
T14E8 001:593 JLINK_WriteReg(R14, 0x10000001)  returns 0x00 (0000ms, 1014ms total)
T14E8 001:593 JLINK_WriteReg(R15 (PC), 0x10000020)  returns 0x00 (0000ms, 1014ms total)
T14E8 001:593 JLINK_WriteReg(XPSR, 0x01000000)  returns 0x00 (0000ms, 1014ms total)
T14E8 001:593 JLINK_WriteReg(MSP, 0x10000FE0)  returns 0x00 (0000ms, 1014ms total)
T14E8 001:593 JLINK_WriteReg(PSP, 0x10000FE0)  returns 0x00 (0000ms, 1014ms total)
T14E8 001:593 JLINK_WriteReg(CFBP, 0x00000000)  returns 0x00 (0000ms, 1014ms total)
T14E8 001:593 JLINK_SetBPEx(Addr = 0x10000000, Type = 0xFFFFFFF2)  returns 0x00000008 (0000ms, 1014ms total)
T14E8 001:593 JLINK_Go() -- CPU_ReadMem(4 bytes @ 0xE0001000) (0003ms, 1017ms total)
T14E8 001:596 JLINK_IsHalted()  returns TRUE (0003ms, 1020ms total)
T14E8 001:599 JLINK_ReadReg(R15 (PC))  returns 0x10000000 (0000ms, 1017ms total)
T14E8 001:599 JLINK_ClrBPEx(BPHandle = 0x00000008)  returns 0x00 (0000ms, 1017ms total)
T14E8 001:599 JLINK_ReadReg(R0)  returns 0x00000001 (0000ms, 1017ms total)
T14E8 001:599 JLINK_WriteReg(R0, 0x00003000)  returns 0x00 (0000ms, 1017ms total)
T14E8 001:599 JLINK_WriteReg(R1, 0x00001000)  returns 0x00 (0000ms, 1017ms total)
T14E8 001:599 JLINK_WriteReg(R2, 0x000000FF)  returns 0x00 (0000ms, 1017ms total)
T14E8 001:599 JLINK_WriteReg(R3, 0x00000000)  returns 0x00 (0000ms, 1017ms total)
T14E8 001:599 JLINK_WriteReg(R4, 0x00000000)  returns 0x00 (0000ms, 1017ms total)
T14E8 001:599 JLINK_WriteReg(R5, 0x00000000)  returns 0x00 (0000ms, 1017ms total)
T14E8 001:599 JLINK_WriteReg(R6, 0x00000000)  returns 0x00 (0000ms, 1017ms total)
T14E8 001:599 JLINK_WriteReg(R7, 0x00000000)  returns 0x00 (0000ms, 1017ms total)
T14E8 001:599 JLINK_WriteReg(R8, 0x00000000)  returns 0x00 (0000ms, 1017ms total)
T14E8 001:599 JLINK_WriteReg(R9, 0x100001DC)  returns 0x00 (0000ms, 1017ms total)
T14E8 001:599 JLINK_WriteReg(R10, 0x00000000)  returns 0x00 (0000ms, 1017ms total)
T14E8 001:599 JLINK_WriteReg(R11, 0x00000000)  returns 0x00 (0000ms, 1017ms total)
T14E8 001:599 JLINK_WriteReg(R12, 0x00000000)  returns 0x00 (0000ms, 1017ms total)
T14E8 001:599 JLINK_WriteReg(R13 (SP), 0x10000FE0)  returns 0x00 (0000ms, 1017ms total)
T14E8 001:599 JLINK_WriteReg(R14, 0x10000001)  returns 0x00 (0000ms, 1017ms total)
T14E8 001:599 JLINK_WriteReg(R15 (PC), 0x10000110)  returns 0x00 (0000ms, 1017ms total)
T14E8 001:599 JLINK_WriteReg(XPSR, 0x01000000)  returns 0x00 (0000ms, 1017ms total)
T14E8 001:599 JLINK_WriteReg(MSP, 0x10000FE0)  returns 0x00 (0000ms, 1017ms total)
T14E8 001:599 JLINK_WriteReg(PSP, 0x10000FE0)  returns 0x00 (0000ms, 1017ms total)
T14E8 001:599 JLINK_WriteReg(CFBP, 0x00000000)  returns 0x00 (0000ms, 1017ms total)
T14E8 001:599 JLINK_SetBPEx(Addr = 0x10000000, Type = 0xFFFFFFF2)  returns 0x00000009 (0000ms, 1017ms total)
T14E8 001:599 JLINK_Go() -- CPU_ReadMem(4 bytes @ 0xE0001000) (0003ms, 1020ms total)
T14E8 001:602 JLINK_IsHalted()  returns FALSE (0001ms, 1021ms total)
T14E8 001:743 JLINK_IsHalted()  returns TRUE (0003ms, 1023ms total)
T14E8 001:746 JLINK_ReadReg(R15 (PC))  returns 0x10000000 (0000ms, 1020ms total)
T14E8 001:746 JLINK_ClrBPEx(BPHandle = 0x00000009)  returns 0x00 (0000ms, 1020ms total)
T14E8 001:746 JLINK_ReadReg(R0)  returns 0x00000000 (0000ms, 1020ms total)
T14E8 001:747 JLINK_WriteReg(R0, 0x00000001)  returns 0x00 (0000ms, 1020ms total)
T14E8 001:747 JLINK_WriteReg(R1, 0x00001000)  returns 0x00 (0000ms, 1020ms total)
T14E8 001:747 JLINK_WriteReg(R2, 0x000000FF)  returns 0x00 (0000ms, 1020ms total)
T14E8 001:747 JLINK_WriteReg(R3, 0x00000000)  returns 0x00 (0000ms, 1020ms total)
T14E8 001:747 JLINK_WriteReg(R4, 0x00000000)  returns 0x00 (0000ms, 1020ms total)
T14E8 001:747 JLINK_WriteReg(R5, 0x00000000)  returns 0x00 (0000ms, 1020ms total)
T14E8 001:747 JLINK_WriteReg(R6, 0x00000000)  returns 0x00 (0000ms, 1020ms total)
T14E8 001:747 JLINK_WriteReg(R7, 0x00000000)  returns 0x00 (0000ms, 1020ms total)
T14E8 001:747 JLINK_WriteReg(R8, 0x00000000)  returns 0x00 (0000ms, 1020ms total)
T14E8 001:747 JLINK_WriteReg(R9, 0x100001DC)  returns 0x00 (0000ms, 1020ms total)
T14E8 001:747 JLINK_WriteReg(R10, 0x00000000)  returns 0x00 (0000ms, 1020ms total)
T14E8 001:747 JLINK_WriteReg(R11, 0x00000000)  returns 0x00 (0000ms, 1020ms total)
T14E8 001:747 JLINK_WriteReg(R12, 0x00000000)  returns 0x00 (0000ms, 1020ms total)
T14E8 001:747 JLINK_WriteReg(R13 (SP), 0x10000FE0)  returns 0x00 (0000ms, 1020ms total)
T14E8 001:747 JLINK_WriteReg(R14, 0x10000001)  returns 0x00 (0000ms, 1020ms total)
T14E8 001:747 JLINK_WriteReg(R15 (PC), 0x100000CC)  returns 0x00 (0000ms, 1020ms total)
T14E8 001:747 JLINK_WriteReg(XPSR, 0x01000000)  returns 0x00 (0000ms, 1020ms total)
T14E8 001:747 JLINK_WriteReg(MSP, 0x10000FE0)  returns 0x00 (0000ms, 1020ms total)
T14E8 001:747 JLINK_WriteReg(PSP, 0x10000FE0)  returns 0x00 (0000ms, 1020ms total)
T14E8 001:747 JLINK_WriteReg(CFBP, 0x00000000)  returns 0x00 (0000ms, 1020ms total)
T14E8 001:747 JLINK_SetBPEx(Addr = 0x10000000, Type = 0xFFFFFFF2)  returns 0x0000000A (0000ms, 1020ms total)
T14E8 001:747 JLINK_Go() -- CPU_ReadMem(4 bytes @ 0xE0001000) (0003ms, 1023ms total)
T14E8 001:750 JLINK_IsHalted()  returns TRUE (0003ms, 1026ms total)
T14E8 001:753 JLINK_ReadReg(R15 (PC))  returns 0x10000000 (0000ms, 1023ms total)
T14E8 001:753 JLINK_ClrBPEx(BPHandle = 0x0000000A)  returns 0x00 (0000ms, 1023ms total)
T14E8 001:753 JLINK_ReadReg(R0)  returns 0x00000000 (0000ms, 1023ms total)
T14E8 001:810 JLINK_WriteMem(0x10000000, 0x01E4 Bytes, ...) - Data: 00 BE 0A E0 0D 78 2D 06 68 40 08 24 40 00 00 D3 ... -- CPU_WriteMem(484 bytes @ 0x10000000)  returns 0x1E4 (0005ms, 1028ms total)
T14E8 001:815 JLINK_WriteReg(R0, 0x00000000)  returns 0x00 (0000ms, 1028ms total)
T14E8 001:815 JLINK_WriteReg(R1, 0x00B71B00)  returns 0x00 (0000ms, 1028ms total)
T14E8 001:815 JLINK_WriteReg(R2, 0x00000002)  returns 0x00 (0000ms, 1028ms total)
T14E8 001:815 JLINK_WriteReg(R3, 0x00000000)  returns 0x00 (0000ms, 1028ms total)
T14E8 001:815 JLINK_WriteReg(R4, 0x00000000)  returns 0x00 (0000ms, 1028ms total)
T14E8 001:815 JLINK_WriteReg(R5, 0x00000000)  returns 0x00 (0000ms, 1028ms total)
T14E8 001:815 JLINK_WriteReg(R6, 0x00000000)  returns 0x00 (0000ms, 1028ms total)
T14E8 001:815 JLINK_WriteReg(R7, 0x00000000)  returns 0x00 (0000ms, 1028ms total)
T14E8 001:815 JLINK_WriteReg(R8, 0x00000000)  returns 0x00 (0000ms, 1028ms total)
T14E8 001:815 JLINK_WriteReg(R9, 0x100001DC)  returns 0x00 (0000ms, 1028ms total)
T14E8 001:815 JLINK_WriteReg(R10, 0x00000000)  returns 0x00 (0000ms, 1028ms total)
T14E8 001:815 JLINK_WriteReg(R11, 0x00000000)  returns 0x00 (0000ms, 1028ms total)
T14E8 001:815 JLINK_WriteReg(R12, 0x00000000)  returns 0x00 (0000ms, 1028ms total)
T14E8 001:815 JLINK_WriteReg(R13 (SP), 0x10000FE0)  returns 0x00 (0000ms, 1028ms total)
T14E8 001:815 JLINK_WriteReg(R14, 0x10000001)  returns 0x00 (0000ms, 1028ms total)
T14E8 001:815 JLINK_WriteReg(R15 (PC), 0x10000044)  returns 0x00 (0000ms, 1028ms total)
T14E8 001:815 JLINK_WriteReg(XPSR, 0x01000000)  returns 0x00 (0000ms, 1028ms total)
T14E8 001:815 JLINK_WriteReg(MSP, 0x10000FE0)  returns 0x00 (0000ms, 1028ms total)
T14E8 001:815 JLINK_WriteReg(PSP, 0x10000FE0)  returns 0x00 (0000ms, 1028ms total)
T14E8 001:815 JLINK_WriteReg(CFBP, 0x00000000)  returns 0x00 (0000ms, 1028ms total)
T14E8 001:815 JLINK_SetBPEx(Addr = 0x10000000, Type = 0xFFFFFFF2)  returns 0x0000000B (0000ms, 1028ms total)
T14E8 001:815 JLINK_Go() -- CPU_ReadMem(4 bytes @ 0xE0001000) (0003ms, 1031ms total)
T14E8 001:818 JLINK_IsHalted()  returns TRUE (0003ms, 1034ms total)
T14E8 001:821 JLINK_ReadReg(R15 (PC))  returns 0x10000000 (0000ms, 1031ms total)
T14E8 001:821 JLINK_ClrBPEx(BPHandle = 0x0000000B)  returns 0x00 (0000ms, 1031ms total)
T14E8 001:821 JLINK_ReadReg(R0)  returns 0x00000000 (0000ms, 1031ms total)
T14E8 001:822 JLINK_WriteMem(0x10000204, 0x01FC Bytes, ...) - Data: D0 16 00 10 61 39 00 00 69 39 00 00 6B 39 00 00 ... -- CPU_WriteMem(508 bytes @ 0x10000204)  returns 0x1FC (0005ms, 1036ms total)
T14E8 001:827 JLINK_WriteMem(0x10000400, 0x0204 Bytes, ...) - Data: 23 43 36 4C C4 F8 AC 31 10 BD 01 46 20 29 03 D2 ... -- CPU_WriteMem(516 bytes @ 0x10000400)  returns 0x204 (0005ms, 1041ms total)
T14E8 001:832 JLINK_WriteReg(R0, 0x00000000)  returns 0x00 (0000ms, 1041ms total)
T14E8 001:832 JLINK_WriteReg(R1, 0x00000400)  returns 0x00 (0000ms, 1041ms total)
T14E8 001:832 JLINK_WriteReg(R2, 0x10000204)  returns 0x00 (0000ms, 1041ms total)
T14E8 001:832 JLINK_WriteReg(R3, 0x00000000)  returns 0x00 (0000ms, 1041ms total)
T14E8 001:832 JLINK_WriteReg(R4, 0x00000000)  returns 0x00 (0000ms, 1041ms total)
T14E8 001:832 JLINK_WriteReg(R5, 0x00000000)  returns 0x00 (0000ms, 1041ms total)
T14E8 001:832 JLINK_WriteReg(R6, 0x00000000)  returns 0x00 (0000ms, 1041ms total)
T14E8 001:832 JLINK_WriteReg(R7, 0x00000000)  returns 0x00 (0000ms, 1041ms total)
T14E8 001:832 JLINK_WriteReg(R8, 0x00000000)  returns 0x00 (0000ms, 1041ms total)
T14E8 001:832 JLINK_WriteReg(R9, 0x100001DC)  returns 0x00 (0000ms, 1041ms total)
T14E8 001:832 JLINK_WriteReg(R10, 0x00000000)  returns 0x00 (0000ms, 1041ms total)
T14E8 001:832 JLINK_WriteReg(R11, 0x00000000)  returns 0x00 (0000ms, 1041ms total)
T14E8 001:832 JLINK_WriteReg(R12, 0x00000000)  returns 0x00 (0000ms, 1041ms total)
T14E8 001:832 JLINK_WriteReg(R13 (SP), 0x10000FE0)  returns 0x00 (0000ms, 1041ms total)
T14E8 001:832 JLINK_WriteReg(R14, 0x10000001)  returns 0x00 (0000ms, 1041ms total)
T14E8 001:832 JLINK_WriteReg(R15 (PC), 0x10000156)  returns 0x00 (0000ms, 1041ms total)
T14E8 001:832 JLINK_WriteReg(XPSR, 0x01000000)  returns 0x00 (0000ms, 1041ms total)
T14E8 001:832 JLINK_WriteReg(MSP, 0x10000FE0)  returns 0x00 (0000ms, 1041ms total)
T14E8 001:832 JLINK_WriteReg(PSP, 0x10000FE0)  returns 0x00 (0000ms, 1041ms total)
T14E8 001:832 JLINK_WriteReg(CFBP, 0x00000000)  returns 0x00 (0000ms, 1041ms total)
T14E8 001:832 JLINK_SetBPEx(Addr = 0x10000000, Type = 0xFFFFFFF2)  returns 0x0000000C (0000ms, 1041ms total)
T14E8 001:832 JLINK_Go() -- CPU_ReadMem(4 bytes @ 0xE0001000) (0002ms, 1043ms total)
T14E8 001:835 JLINK_IsHalted()  returns FALSE (0000ms, 1043ms total)
T14E8 001:951 JLINK_IsHalted()  returns TRUE (0003ms, 1046ms total)
T14E8 001:954 JLINK_ReadReg(R15 (PC))  returns 0x10000000 (0000ms, 1043ms total)
T14E8 001:954 JLINK_ClrBPEx(BPHandle = 0x0000000C)  returns 0x00 (0000ms, 1043ms total)
T14E8 001:954 JLINK_ReadReg(R0)  returns 0x00000000 (0000ms, 1043ms total)
T14E8 001:955 JLINK_WriteMem(0x10000204, 0x01FC Bytes, ...) - Data: 01 F0 C1 F9 C7 48 00 F0 36 FF C7 48 00 78 01 28 ... -- CPU_WriteMem(508 bytes @ 0x10000204)  returns 0x1FC (0005ms, 1048ms total)
T14E8 001:960 JLINK_WriteMem(0x10000400, 0x0204 Bytes, ...) - Data: 00 F0 0A FE 5B 48 00 F0 07 FE 5B 48 00 F0 04 FE ... -- CPU_WriteMem(516 bytes @ 0x10000400)  returns 0x204 (0005ms, 1053ms total)
T14E8 001:965 JLINK_WriteReg(R0, 0x00000400)  returns 0x00 (0000ms, 1053ms total)
T14E8 001:965 JLINK_WriteReg(R1, 0x00000400)  returns 0x00 (0000ms, 1053ms total)
T14E8 001:965 JLINK_WriteReg(R2, 0x10000204)  returns 0x00 (0000ms, 1053ms total)
T14E8 001:965 JLINK_WriteReg(R3, 0x00000000)  returns 0x00 (0000ms, 1053ms total)
T14E8 001:965 JLINK_WriteReg(R4, 0x00000000)  returns 0x00 (0000ms, 1053ms total)
T14E8 001:965 JLINK_WriteReg(R5, 0x00000000)  returns 0x00 (0000ms, 1053ms total)
T14E8 001:965 JLINK_WriteReg(R6, 0x00000000)  returns 0x00 (0000ms, 1053ms total)
T14E8 001:965 JLINK_WriteReg(R7, 0x00000000)  returns 0x00 (0000ms, 1053ms total)
T14E8 001:965 JLINK_WriteReg(R8, 0x00000000)  returns 0x00 (0000ms, 1053ms total)
T14E8 001:965 JLINK_WriteReg(R9, 0x100001DC)  returns 0x00 (0000ms, 1053ms total)
T14E8 001:965 JLINK_WriteReg(R10, 0x00000000)  returns 0x00 (0000ms, 1053ms total)
T14E8 001:965 JLINK_WriteReg(R11, 0x00000000)  returns 0x00 (0000ms, 1053ms total)
T14E8 001:965 JLINK_WriteReg(R12, 0x00000000)  returns 0x00 (0000ms, 1053ms total)
T14E8 001:965 JLINK_WriteReg(R13 (SP), 0x10000FE0)  returns 0x00 (0000ms, 1053ms total)
T14E8 001:965 JLINK_WriteReg(R14, 0x10000001)  returns 0x00 (0000ms, 1053ms total)
T14E8 001:965 JLINK_WriteReg(R15 (PC), 0x10000156)  returns 0x00 (0000ms, 1053ms total)
T14E8 001:965 JLINK_WriteReg(XPSR, 0x01000000)  returns 0x00 (0000ms, 1053ms total)
T14E8 001:965 JLINK_WriteReg(MSP, 0x10000FE0)  returns 0x00 (0000ms, 1053ms total)
T14E8 001:965 JLINK_WriteReg(PSP, 0x10000FE0)  returns 0x00 (0000ms, 1053ms total)
T14E8 001:965 JLINK_WriteReg(CFBP, 0x00000000)  returns 0x00 (0000ms, 1053ms total)
T14E8 001:965 JLINK_SetBPEx(Addr = 0x10000000, Type = 0xFFFFFFF2)  returns 0x0000000D (0000ms, 1053ms total)
T14E8 001:965 JLINK_Go() -- CPU_ReadMem(4 bytes @ 0xE0001000) (0003ms, 1056ms total)
T14E8 001:968 JLINK_IsHalted()  returns FALSE (0000ms, 1056ms total)
T14E8 001:969 JLINK_IsHalted()  returns FALSE (0000ms, 1056ms total)
T14E8 001:970 JLINK_IsHalted()  returns FALSE (0000ms, 1056ms total)
T14E8 001:971 JLINK_IsHalted()  returns FALSE (0000ms, 1056ms total)
T14E8 001:972 JLINK_IsHalted()  returns FALSE (0000ms, 1056ms total)
T14E8 001:973 JLINK_IsHalted()  returns FALSE (0000ms, 1056ms total)
T14E8 001:974 JLINK_IsHalted()  returns TRUE (0003ms, 1059ms total)
T14E8 001:977 JLINK_ReadReg(R15 (PC))  returns 0x10000000 (0000ms, 1056ms total)
T14E8 001:977 JLINK_ClrBPEx(BPHandle = 0x0000000D)  returns 0x00 (0000ms, 1056ms total)
T14E8 001:977 JLINK_ReadReg(R0)  returns 0x00000000 (0000ms, 1056ms total)
T14E8 001:978 JLINK_WriteMem(0x10000204, 0x01FC Bytes, ...) - Data: 01 F0 11 FA ED 48 00 68 40 1C EC 49 08 60 EB 48 ... -- CPU_WriteMem(508 bytes @ 0x10000204)  returns 0x1FC (0004ms, 1060ms total)
T14E8 001:982 JLINK_WriteMem(0x10000400, 0x0204 Bytes, ...) - Data: 7D 49 08 60 08 46 00 68 39 28 04 DD 00 20 79 49 ... -- CPU_WriteMem(516 bytes @ 0x10000400)  returns 0x204 (0005ms, 1065ms total)
T14E8 001:987 JLINK_WriteReg(R0, 0x00000800)  returns 0x00 (0000ms, 1065ms total)
T14E8 001:987 JLINK_WriteReg(R1, 0x00000400)  returns 0x00 (0000ms, 1065ms total)
T14E8 001:987 JLINK_WriteReg(R2, 0x10000204)  returns 0x00 (0000ms, 1065ms total)
T14E8 001:987 JLINK_WriteReg(R3, 0x00000000)  returns 0x00 (0000ms, 1065ms total)
T14E8 001:987 JLINK_WriteReg(R4, 0x00000000)  returns 0x00 (0000ms, 1065ms total)
T14E8 001:987 JLINK_WriteReg(R5, 0x00000000)  returns 0x00 (0000ms, 1065ms total)
T14E8 001:987 JLINK_WriteReg(R6, 0x00000000)  returns 0x00 (0000ms, 1065ms total)
T14E8 001:987 JLINK_WriteReg(R7, 0x00000000)  returns 0x00 (0000ms, 1065ms total)
T14E8 001:987 JLINK_WriteReg(R8, 0x00000000)  returns 0x00 (0000ms, 1065ms total)
T14E8 001:987 JLINK_WriteReg(R9, 0x100001DC)  returns 0x00 (0000ms, 1065ms total)
T14E8 001:987 JLINK_WriteReg(R10, 0x00000000)  returns 0x00 (0000ms, 1065ms total)
T14E8 001:987 JLINK_WriteReg(R11, 0x00000000)  returns 0x00 (0000ms, 1065ms total)
T14E8 001:987 JLINK_WriteReg(R12, 0x00000000)  returns 0x00 (0000ms, 1065ms total)
T14E8 001:987 JLINK_WriteReg(R13 (SP), 0x10000FE0)  returns 0x00 (0001ms, 1066ms total)
T14E8 001:988 JLINK_WriteReg(R14, 0x10000001)  returns 0x00 (0000ms, 1066ms total)
T14E8 001:988 JLINK_WriteReg(R15 (PC), 0x10000156)  returns 0x00 (0000ms, 1066ms total)
T14E8 001:988 JLINK_WriteReg(XPSR, 0x01000000)  returns 0x00 (0000ms, 1066ms total)
T14E8 001:988 JLINK_WriteReg(MSP, 0x10000FE0)  returns 0x00 (0000ms, 1066ms total)
T14E8 001:988 JLINK_WriteReg(PSP, 0x10000FE0)  returns 0x00 (0000ms, 1066ms total)
T14E8 001:988 JLINK_WriteReg(CFBP, 0x00000000)  returns 0x00 (0000ms, 1066ms total)
T14E8 001:988 JLINK_SetBPEx(Addr = 0x10000000, Type = 0xFFFFFFF2)  returns 0x0000000E (0000ms, 1066ms total)
T14E8 001:988 JLINK_Go() -- CPU_ReadMem(4 bytes @ 0xE0001000) (0002ms, 1068ms total)
T14E8 001:990 JLINK_IsHalted()  returns FALSE (0001ms, 1069ms total)
T14E8 001:992 JLINK_IsHalted()  returns FALSE (0000ms, 1068ms total)
T14E8 001:993 JLINK_IsHalted()  returns FALSE (0000ms, 1068ms total)
T14E8 001:994 JLINK_IsHalted()  returns FALSE (0000ms, 1068ms total)
T14E8 001:995 JLINK_IsHalted()  returns FALSE (0000ms, 1068ms total)
T14E8 001:996 JLINK_IsHalted()  returns FALSE (0000ms, 1068ms total)
T14E8 001:997 JLINK_IsHalted()  returns TRUE (0003ms, 1071ms total)
T14E8 002:000 JLINK_ReadReg(R15 (PC))  returns 0x10000000 (0000ms, 1068ms total)
T14E8 002:000 JLINK_ClrBPEx(BPHandle = 0x0000000E)  returns 0x00 (0000ms, 1068ms total)
T14E8 002:000 JLINK_ReadReg(R0)  returns 0x00000000 (0000ms, 1068ms total)
T14E8 002:001 JLINK_WriteMem(0x10000204, 0x01FC Bytes, ...) - Data: 9C 00 00 10 00 80 00 40 6C 02 00 10 9C 03 00 10 ... -- CPU_WriteMem(508 bytes @ 0x10000204)  returns 0x1FC (0005ms, 1073ms total)
T14E8 002:006 JLINK_WriteMem(0x10000400, 0x0204 Bytes, ...) - Data: 9E 05 15 B1 E8 B2 00 F0 D5 FB 04 2C 01 D0 0C 2C ... -- CPU_WriteMem(516 bytes @ 0x10000400)  returns 0x204 (0004ms, 1077ms total)
T14E8 002:010 JLINK_WriteReg(R0, 0x00000C00)  returns 0x00 (0000ms, 1077ms total)
T14E8 002:010 JLINK_WriteReg(R1, 0x00000400)  returns 0x00 (0001ms, 1078ms total)
T14E8 002:011 JLINK_WriteReg(R2, 0x10000204)  returns 0x00 (0000ms, 1078ms total)
T14E8 002:011 JLINK_WriteReg(R3, 0x00000000)  returns 0x00 (0000ms, 1078ms total)
T14E8 002:011 JLINK_WriteReg(R4, 0x00000000)  returns 0x00 (0000ms, 1078ms total)
T14E8 002:011 JLINK_WriteReg(R5, 0x00000000)  returns 0x00 (0000ms, 1078ms total)
T14E8 002:011 JLINK_WriteReg(R6, 0x00000000)  returns 0x00 (0000ms, 1078ms total)
T14E8 002:011 JLINK_WriteReg(R7, 0x00000000)  returns 0x00 (0000ms, 1078ms total)
T14E8 002:011 JLINK_WriteReg(R8, 0x00000000)  returns 0x00 (0000ms, 1078ms total)
T14E8 002:011 JLINK_WriteReg(R9, 0x100001DC)  returns 0x00 (0000ms, 1078ms total)
T14E8 002:011 JLINK_WriteReg(R10, 0x00000000)  returns 0x00 (0000ms, 1078ms total)
T14E8 002:011 JLINK_WriteReg(R11, 0x00000000)  returns 0x00 (0000ms, 1078ms total)
T14E8 002:011 JLINK_WriteReg(R12, 0x00000000)  returns 0x00 (0000ms, 1078ms total)
T14E8 002:011 JLINK_WriteReg(R13 (SP), 0x10000FE0)  returns 0x00 (0000ms, 1078ms total)
T14E8 002:011 JLINK_WriteReg(R14, 0x10000001)  returns 0x00 (0000ms, 1078ms total)
T14E8 002:011 JLINK_WriteReg(R15 (PC), 0x10000156)  returns 0x00 (0000ms, 1078ms total)
T14E8 002:011 JLINK_WriteReg(XPSR, 0x01000000)  returns 0x00 (0000ms, 1078ms total)
T14E8 002:011 JLINK_WriteReg(MSP, 0x10000FE0)  returns 0x00 (0000ms, 1078ms total)
T14E8 002:011 JLINK_WriteReg(PSP, 0x10000FE0)  returns 0x00 (0000ms, 1078ms total)
T14E8 002:011 JLINK_WriteReg(CFBP, 0x00000000)  returns 0x00 (0000ms, 1078ms total)
T14E8 002:011 JLINK_SetBPEx(Addr = 0x10000000, Type = 0xFFFFFFF2)  returns 0x0000000F (0000ms, 1078ms total)
T14E8 002:011 JLINK_Go() -- CPU_ReadMem(4 bytes @ 0xE0001000) (0003ms, 1081ms total)
T14E8 002:014 JLINK_IsHalted()  returns FALSE (0000ms, 1081ms total)
T14E8 002:015 JLINK_IsHalted()  returns FALSE (0000ms, 1081ms total)
T14E8 002:016 JLINK_IsHalted()  returns FALSE (0000ms, 1081ms total)
T14E8 002:017 JLINK_IsHalted()  returns FALSE (0000ms, 1081ms total)
T14E8 002:018 JLINK_IsHalted()  returns FALSE (0000ms, 1081ms total)
T14E8 002:019 JLINK_IsHalted()  returns FALSE (0000ms, 1081ms total)
T14E8 002:020 JLINK_IsHalted()  returns TRUE (0003ms, 1084ms total)
T14E8 002:023 JLINK_ReadReg(R15 (PC))  returns 0x10000000 (0000ms, 1081ms total)
T14E8 002:023 JLINK_ClrBPEx(BPHandle = 0x0000000F)  returns 0x00 (0000ms, 1081ms total)
T14E8 002:023 JLINK_ReadReg(R0)  returns 0x00000000 (0000ms, 1081ms total)
T14E8 002:024 JLINK_WriteMem(0x10000204, 0x01FC Bytes, ...) - Data: 05 28 04 DA 71 48 00 78 20 44 70 49 08 70 6E 48 ... -- CPU_WriteMem(508 bytes @ 0x10000204)  returns 0x1FC (0004ms, 1085ms total)
T14E8 002:028 JLINK_WriteMem(0x10000400, 0x0204 Bytes, ...) - Data: 13 0E 6D 4A 13 54 06 E0 CA 06 14 0E 6B 4A 00 F0 ... -- CPU_WriteMem(516 bytes @ 0x10000400)  returns 0x204 (0005ms, 1090ms total)
T14E8 002:033 JLINK_WriteReg(R0, 0x00001000)  returns 0x00 (0000ms, 1090ms total)
T14E8 002:033 JLINK_WriteReg(R1, 0x00000400)  returns 0x00 (0000ms, 1090ms total)
T14E8 002:033 JLINK_WriteReg(R2, 0x10000204)  returns 0x00 (0000ms, 1090ms total)
T14E8 002:033 JLINK_WriteReg(R3, 0x00000000)  returns 0x00 (0000ms, 1090ms total)
T14E8 002:033 JLINK_WriteReg(R4, 0x00000000)  returns 0x00 (0000ms, 1090ms total)
T14E8 002:033 JLINK_WriteReg(R5, 0x00000000)  returns 0x00 (0000ms, 1090ms total)
T14E8 002:033 JLINK_WriteReg(R6, 0x00000000)  returns 0x00 (0000ms, 1090ms total)
T14E8 002:033 JLINK_WriteReg(R7, 0x00000000)  returns 0x00 (0000ms, 1090ms total)
T14E8 002:033 JLINK_WriteReg(R8, 0x00000000)  returns 0x00 (0000ms, 1090ms total)
T14E8 002:033 JLINK_WriteReg(R9, 0x100001DC)  returns 0x00 (0000ms, 1090ms total)
T14E8 002:033 JLINK_WriteReg(R10, 0x00000000)  returns 0x00 (0000ms, 1090ms total)
T14E8 002:033 JLINK_WriteReg(R11, 0x00000000)  returns 0x00 (0000ms, 1090ms total)
T14E8 002:033 JLINK_WriteReg(R12, 0x00000000)  returns 0x00 (0000ms, 1090ms total)
T14E8 002:033 JLINK_WriteReg(R13 (SP), 0x10000FE0)  returns 0x00 (0000ms, 1090ms total)
T14E8 002:033 JLINK_WriteReg(R14, 0x10000001)  returns 0x00 (0000ms, 1090ms total)
T14E8 002:033 JLINK_WriteReg(R15 (PC), 0x10000156)  returns 0x00 (0000ms, 1090ms total)
T14E8 002:033 JLINK_WriteReg(XPSR, 0x01000000)  returns 0x00 (0000ms, 1090ms total)
T14E8 002:033 JLINK_WriteReg(MSP, 0x10000FE0)  returns 0x00 (0000ms, 1090ms total)
T14E8 002:033 JLINK_WriteReg(PSP, 0x10000FE0)  returns 0x00 (0000ms, 1090ms total)
T14E8 002:033 JLINK_WriteReg(CFBP, 0x00000000)  returns 0x00 (0000ms, 1090ms total)
T14E8 002:033 JLINK_SetBPEx(Addr = 0x10000000, Type = 0xFFFFFFF2)  returns 0x00000010 (0000ms, 1090ms total)
T14E8 002:033 JLINK_Go() -- CPU_ReadMem(4 bytes @ 0xE0001000) (0003ms, 1093ms total)
T14E8 002:036 JLINK_IsHalted()  returns FALSE (0001ms, 1094ms total)
T14E8 002:040 JLINK_IsHalted()  returns FALSE (0000ms, 1093ms total)
T14E8 002:041 JLINK_IsHalted()  returns FALSE (0000ms, 1093ms total)
T14E8 002:042 JLINK_IsHalted()  returns FALSE (0000ms, 1093ms total)
T14E8 002:043 JLINK_IsHalted()  returns TRUE (0003ms, 1096ms total)
T14E8 002:046 JLINK_ReadReg(R15 (PC))  returns 0x10000000 (0000ms, 1093ms total)
T14E8 002:046 JLINK_ClrBPEx(BPHandle = 0x00000010)  returns 0x00 (0000ms, 1093ms total)
T14E8 002:046 JLINK_ReadReg(R0)  returns 0x00000000 (0000ms, 1093ms total)
T14E8 002:047 JLINK_WriteMem(0x10000204, 0x01FC Bytes, ...) - Data: EE 48 81 42 01 D1 03 20 EF E7 FF 20 ED E7 F8 B5 ... -- CPU_WriteMem(508 bytes @ 0x10000204)  returns 0x1FC (0005ms, 1098ms total)
